
**** 10/21/19 12:02:11 *********** Evaluation PSpice (Nov 1999) **************

 * C:\Users\arnau\Desktop\repos\UAB-EiE-Practica-4\recursos\Ejercicio3.2.sch


 ****     CIRCUIT DESCRIPTION


******************************************************************************




* Schematics Version 9.1 - Web Update 1
* Mon Oct 21 12:02:11 2019


.PARAM         x=10k 

** Analysis setup **
.tran 0ns 0.3ms
.STEP  PARAM x LIST 
+ 10k, 50k, 100k
.OP 


* From [PSPICE NETLIST] section of pspiceev.ini:
.lib "nom.lib"

.INC "Ejercicio3.2.net"

**** INCLUDING Ejercicio3.2.net ****
* Schematics Netlist *



R_R2         0 Vo  {x}  
R_R1         $N_0001 Vo  10k  
V_V5         $N_0001 0 10V

**** RESUMING Ejercicio3.2.cir ****
.INC "Ejercicio3.2.als"



**** INCLUDING Ejercicio3.2.als ****
* Schematics Aliases *

.ALIASES
R_R2            R2(1=0 2=Vo )
R_R1            R1(1=$N_0001 2=Vo )
V_V5            V5(+=$N_0001 -=0 )
_    _(Vo=Vo)
.ENDALIASES


**** RESUMING Ejercicio3.2.cir ****
.probe


.END

**** 10/21/19 12:02:11 *********** Evaluation PSpice (Nov 1999) **************

 * C:\Users\arnau\Desktop\repos\UAB-EiE-Practica-4\recursos\Ejercicio3.2.sch


 ****     SMALL SIGNAL BIAS SOLUTION       TEMPERATURE =   27.000 DEG C

 ****     CURRENT STEP                     PARAM X =   10.0000E+03


******************************************************************************



 NODE   VOLTAGE     NODE   VOLTAGE     NODE   VOLTAGE     NODE   VOLTAGE


(   Vo)    5.0000  ($N_0001)   10.0000                   




    VOLTAGE SOURCE CURRENTS
    NAME         CURRENT

    V_V5        -5.000E-04

    TOTAL POWER DISSIPATION   5.00E-03  WATTS


**** 10/21/19 12:02:11 *********** Evaluation PSpice (Nov 1999) **************

 * C:\Users\arnau\Desktop\repos\UAB-EiE-Practica-4\recursos\Ejercicio3.2.sch


 ****     OPERATING POINT INFORMATION      TEMPERATURE =   27.000 DEG C

 ****     CURRENT STEP                     PARAM X =   10.0000E+03


******************************************************************************




**** 10/21/19 12:02:11 *********** Evaluation PSpice (Nov 1999) **************

 * C:\Users\arnau\Desktop\repos\UAB-EiE-Practica-4\recursos\Ejercicio3.2.sch


 ****     INITIAL TRANSIENT SOLUTION       TEMPERATURE =   27.000 DEG C

 ****     CURRENT STEP                     PARAM X =   10.0000E+03


******************************************************************************



 NODE   VOLTAGE     NODE   VOLTAGE     NODE   VOLTAGE     NODE   VOLTAGE


(   Vo)    5.0000  ($N_0001)   10.0000                   




    VOLTAGE SOURCE CURRENTS
    NAME         CURRENT

    V_V5        -5.000E-04

    TOTAL POWER DISSIPATION   5.00E-03  WATTS


**** 10/21/19 12:02:11 *********** Evaluation PSpice (Nov 1999) **************

 * C:\Users\arnau\Desktop\repos\UAB-EiE-Practica-4\recursos\Ejercicio3.2.sch


 ****     SMALL SIGNAL BIAS SOLUTION       TEMPERATURE =   27.000 DEG C

 ****     CURRENT STEP                     PARAM X =   50.0000E+03


******************************************************************************



 NODE   VOLTAGE     NODE   VOLTAGE     NODE   VOLTAGE     NODE   VOLTAGE


(   Vo)    8.3333  ($N_0001)   10.0000                   




    VOLTAGE SOURCE CURRENTS
    NAME         CURRENT

    V_V5        -1.667E-04

    TOTAL POWER DISSIPATION   1.67E-03  WATTS


**** 10/21/19 12:02:11 *********** Evaluation PSpice (Nov 1999) **************

 * C:\Users\arnau\Desktop\repos\UAB-EiE-Practica-4\recursos\Ejercicio3.2.sch


 ****     OPERATING POINT INFORMATION      TEMPERATURE =   27.000 DEG C

 ****     CURRENT STEP                     PARAM X =   50.0000E+03


******************************************************************************




**** 10/21/19 12:02:11 *********** Evaluation PSpice (Nov 1999) **************

 * C:\Users\arnau\Desktop\repos\UAB-EiE-Practica-4\recursos\Ejercicio3.2.sch


 ****     INITIAL TRANSIENT SOLUTION       TEMPERATURE =   27.000 DEG C

 ****     CURRENT STEP                     PARAM X =   50.0000E+03


******************************************************************************



 NODE   VOLTAGE     NODE   VOLTAGE     NODE   VOLTAGE     NODE   VOLTAGE


(   Vo)    8.3333  ($N_0001)   10.0000                   




    VOLTAGE SOURCE CURRENTS
    NAME         CURRENT

    V_V5        -1.667E-04

    TOTAL POWER DISSIPATION   1.67E-03  WATTS


**** 10/21/19 12:02:11 *********** Evaluation PSpice (Nov 1999) **************

 * C:\Users\arnau\Desktop\repos\UAB-EiE-Practica-4\recursos\Ejercicio3.2.sch


 ****     SMALL SIGNAL BIAS SOLUTION       TEMPERATURE =   27.000 DEG C

 ****     CURRENT STEP                     PARAM X =  100.0000E+03


******************************************************************************



 NODE   VOLTAGE     NODE   VOLTAGE     NODE   VOLTAGE     NODE   VOLTAGE


(   Vo)    9.0909  ($N_0001)   10.0000                   




    VOLTAGE SOURCE CURRENTS
    NAME         CURRENT

    V_V5        -9.091E-05

    TOTAL POWER DISSIPATION   9.09E-04  WATTS


**** 10/21/19 12:02:11 *********** Evaluation PSpice (Nov 1999) **************

 * C:\Users\arnau\Desktop\repos\UAB-EiE-Practica-4\recursos\Ejercicio3.2.sch


 ****     OPERATING POINT INFORMATION      TEMPERATURE =   27.000 DEG C

 ****     CURRENT STEP                     PARAM X =  100.0000E+03


******************************************************************************




**** 10/21/19 12:02:11 *********** Evaluation PSpice (Nov 1999) **************

 * C:\Users\arnau\Desktop\repos\UAB-EiE-Practica-4\recursos\Ejercicio3.2.sch


 ****     INITIAL TRANSIENT SOLUTION       TEMPERATURE =   27.000 DEG C

 ****     CURRENT STEP                     PARAM X =  100.0000E+03


******************************************************************************



 NODE   VOLTAGE     NODE   VOLTAGE     NODE   VOLTAGE     NODE   VOLTAGE


(   Vo)    9.0909  ($N_0001)   10.0000                   




    VOLTAGE SOURCE CURRENTS
    NAME         CURRENT

    V_V5        -9.091E-05

    TOTAL POWER DISSIPATION   9.09E-04  WATTS



          JOB CONCLUDED

          TOTAL JOB TIME             .03
