
**** 10/21/19 22:49:46 *********** Evaluation PSpice (Nov 1999) **************

 * C:\Users\arnau\Desktop\repos\UAB-EiE-Practica-4\recursos\Ejercicio5.sch


 ****     CIRCUIT DESCRIPTION


******************************************************************************




* Schematics Version 9.1 - Web Update 1
* Mon Oct 21 22:48:34 2019



** Analysis setup **
.tran 0ns 0.04s
.OP 


* From [PSPICE NETLIST] section of pspiceev.ini:
.lib "nom.lib"

.INC "Ejercicio5.net"

**** INCLUDING Ejercicio5.net ****
* Schematics Netlist *



R_R1         N1 N2  1k  
R_R2         N1 N2  1k  
R_R3         Vo N2  1k  
D_D2         Vo 0 D1N4002 
V_V1         N1 0  AC 1
+SIN 0 10 100 0 0 0

**** RESUMING Ejercicio5.cir ****
.INC "Ejercicio5.als"



**** INCLUDING Ejercicio5.als ****
* Schematics Aliases *

.ALIASES
R_R1            R1(1=N1 2=N2 )
R_R2            R2(1=N1 2=N2 )
R_R3            R3(1=Vo 2=N2 )
D_D2            D2(1=Vo 2=0 )
V_V1            V1(+=N1 -=0 )
_    _(N2=N2)
_    _(N1=N1)
_    _(Vo=Vo)
.ENDALIASES


**** RESUMING Ejercicio5.cir ****
.probe


.END

**** 10/21/19 22:49:46 *********** Evaluation PSpice (Nov 1999) **************

 * C:\Users\arnau\Desktop\repos\UAB-EiE-Practica-4\recursos\Ejercicio5.sch


 ****     Diode MODEL PARAMETERS


******************************************************************************




               D1N4002         
          IS   14.110000E-09 
           N    1.984        
         ISR  100.000000E-12 
         IKF   94.81         
          BV  100.1          
         IBV   10            
          RS     .03389      
          TT    4.761000E-06 
         CJO   51.170000E-12 
          VJ     .3905       
           M     .2762       


**** 10/21/19 22:49:46 *********** Evaluation PSpice (Nov 1999) **************

 * C:\Users\arnau\Desktop\repos\UAB-EiE-Practica-4\recursos\Ejercicio5.sch


 ****     SMALL SIGNAL BIAS SOLUTION       TEMPERATURE =   27.000 DEG C


******************************************************************************



 NODE   VOLTAGE     NODE   VOLTAGE     NODE   VOLTAGE     NODE   VOLTAGE


(   N1)    0.0000  (   N2) 257.6E-24  (   Vo) 772.7E-24  




    VOLTAGE SOURCE CURRENTS
    NAME         CURRENT

    V_V1         5.152E-25

    TOTAL POWER DISSIPATION   0.00E+00  WATTS


**** 10/21/19 22:49:46 *********** Evaluation PSpice (Nov 1999) **************

 * C:\Users\arnau\Desktop\repos\UAB-EiE-Practica-4\recursos\Ejercicio5.sch


 ****     OPERATING POINT INFORMATION      TEMPERATURE =   27.000 DEG C


******************************************************************************






**** DIODES


NAME         D_D2      
MODEL        D1N4002   
ID           0.00E+00 
VD           7.73E-22 
REQ          3.61E+06 
CAP          5.25E-11 
**** 10/21/19 22:49:46 *********** Evaluation PSpice (Nov 1999) **************

 * C:\Users\arnau\Desktop\repos\UAB-EiE-Practica-4\recursos\Ejercicio5.sch


 ****     INITIAL TRANSIENT SOLUTION       TEMPERATURE =   27.000 DEG C


******************************************************************************



 NODE   VOLTAGE     NODE   VOLTAGE     NODE   VOLTAGE     NODE   VOLTAGE


(   N1)    0.0000  (   N2) 257.6E-24  (   Vo) 772.7E-24  




    VOLTAGE SOURCE CURRENTS
    NAME         CURRENT

    V_V1         5.152E-25

    TOTAL POWER DISSIPATION   0.00E+00  WATTS



          JOB CONCLUDED

          TOTAL JOB TIME             .02
